EXPLAIN
TAG	EISPOT
TITLE	LABEL	Potentiostatic EIS	Test Identifier
DATE	LABEL	11/18/2020	Date
TIME	LABEL	20:07:47	Time
NOTES	NOTES	2	Notes...
	in 0.5 M H2SO4 purging H2
RPM 1600
PSTAT	PSTAT	IFC1010-24143	Potentiostat
VDC	POTEN	-4.50000E-001	F	DC Voltage (V)
FREQINIT	QUANT	1.00000E+005	Initial Freq. (Hz)
FREQFINAL	QUANT	5.00000E-002	Final Freq. (Hz)
PTSPERDEC	QUANT	1.00000E+001	Points/decade
VAC	QUANT	1.00000E+001	AC Voltage (mV rms)
AREA	QUANT	1.97000E-001	Sample Area (cm^2)
SPEED	SELECTOR	1	Optimize for:
ZGUESS	QUANT	1.00000E+004	Estimated Z (ohms)
EOC	QUANT	0	Open Circuit (V)
SEQUENCER	TOGGLE	TRUE	Run as Sequence
PSTATMODEL	IQUANT	64	Pstat Model
PSTATSECTION	LABEL	IFC1010-24143	Pstat Section
PSTATSERIALNO	LABEL	24143	Pstat Serial Number
CTRLMODE	IQUANT	1	Control Mode
ELECTROMETER	IQUANT	0	RE=0 or CS=1
IESTAB	IQUANT	0	I/E Stability
CASPEED	IQUANT	3	Control Amp Speed
CONVENTION	IQUANT	1	Current Convention
ICHRANGE	IQUANT	2	Ich Range
ICHRANGEMODE	TOGGLE	F	Ich Auto Range
ICHOFFSETENABLE	TOGGLE	T	Ich Offset Enable
ICHOFFSET	QUANT	0	Ich Offset (V)
ICHFILTER	IQUANT	4	Ich Filter
VCHRANGE	IQUANT	2	Vch Range
VCHRANGEMODE	TOGGLE	F	Vch Auto Range
VCHOFFSETENABLE	TOGGLE	T	Vch Offset Enable
VCHOFFSET	QUANT	0	Vch Offset (V)
VCHFILTER	IQUANT	4	Vch Filter
IERANGELOWERLIMIT	IQUANT	4	I/E Range Lower Limit
IERANGEMODE	TOGGLE	F	I/E AutoRange
IERANGE	IQUANT	11	I/E Range
ACHSELECT	IQUANT	0	Ach Select
ACHRANGE	IQUANT	2	Ach Range
ACHOFFSETENABLE	TOGGLE	F	Ach Offset Enable
ACHOFFSET	QUANT	0	Ach Offset (V)
ACHFILTER	IQUANT	1	Ach Filter
SENSECABLEID	IQUANT	14	Sense Cable ID
PWRCABLEID	IQUANT	14	Power Cable ID
DCCALDATE	LABEL	11/16/2020	DC Calibration Date
ACCALDATE	LABEL	6/10/2019	AC Calibration Date
FRAMEWORKVERSION	QUANT	7.07	Framework Version
INSTRUMENTVERSION	LABEL	4.34	Instrument Version
ZCURVE	TABLE
	Pt	Time	Freq	Zreal	Zimag	Zsig	Zmod	Zphz	Idc	Vdc	IERange
	#	s	Hz	ohm	ohm	V	ohm	°	A	V	#
	0	8	100195.3	9.337844	-1.315188	1	9.430008	-8.017086	-0.0003848	-0.4498228	10
	1	11	79570.31	9.412139	-1.631257	1	9.55245	-9.8325	-0.0003799	-0.4498344	10
	2	14	63164.06	9.50254	-2.001497	1	9.71104	-11.89421	-0.0003753	-0.4498202	10
	3	17	50273.44	9.55628	-2.477074	1	9.8721	-14.53176	-0.0003725	-0.4498355	10
	4	20	39960.94	9.70582	-3.022388	1	10.16552	-17.29656	-0.0003698	-0.4498212	10
	5	23	31757.81	9.79546	-3.693351	1	10.46862	-20.6588	-0.0003662	-0.4498467	10
	6	26	25195.31	9.98811	-4.553986	1	10.9773	-24.51017	-0.0003698	-0.4498813	10
	7	29	20039.06	10.15395	-5.536036	1	11.56505	-28.59966	-0.0003682	-0.4498869	10
	8	32	15663.11	10.4507	-6.959135	1	12.55574	-33.65971	-0.0003646	-0.4498679	10
	9	34	12461.89	10.78866	-8.549834	1	13.76571	-38.39625	-0.0003642	-0.4498676	10
	10	37	9946.65	11.14849	-10.45692	1	15.28516	-43.16663	-0.0003609	-0.4498523	10
	11	39	7888.72	11.68522	-12.77388	1	17.31231	-47.54852	-0.0003601	-0.4498463	10
	12	42	6288.11	12.49792	-15.77699	1	20.12738	-51.61511	-0.0003602	-0.4498637	10
	13	45	5039.063	13.3964	-19.2203	1	23.42826	-55.12379	-0.0003584	-0.4498896	10
	14	47	4001.524	14.72442	-23.58741	1	27.80602	-58.02557	-0.0003564	-0.4498919	10
	15	50	3164.063	16.57947	-28.98163	1	33.38882	-60.2275	-0.000356	-0.4498852	9
	16	53	2507.267	19.08956	-35.44086	1	40.25501	-61.69169	-0.0003549	-0.4498811	9
	17	56	1979.167	22.64328	-43.29936	1	48.86259	-62.39281	-0.0003533	-0.4498838	9
	18	58	1598.011	27.07229	-51.60054	1	58.27113	-62.31619	-0.0003526	-0.4498827	9
	19	61	1257.622	33.91156	-62.35434	1	70.97927	-61.46033	-0.0003515	-0.4498824	9
	20	64	1004.464	42.55919	-73.42236	1	84.86536	-59.90132	-0.0003516	-0.4498826	9
	21	65	800.3049	54.26147	-85.48014	1	101.248	-57.59325	-0.0003504	-0.4498836	9
	22	67	631.0096	70.14719	-98.142	1	120.6336	-54.44463	-0.0003498	-0.4498881	9
	23	69	498.6702	90.11167	-109.456	1	141.7771	-50.53646	-0.0003492	-0.4498891	9
	24	71	397.2458	112.6254	-117.6894	1	162.8965	-46.2596	-0.0003482	-0.4498874	9
	25	73	319.6023	136.491	-121.7114	1	182.8755	-41.72394	-0.0003487	-0.4498902	9
	26	75	251.1161	163.7934	-121.634	1	204.0174	-36.59782	-0.000348	-0.4498886	9
	27	77	200.8929	187.8159	-117.1865	1	221.3764	-31.96182	-0.0003471	-0.4498881	9
	28	79	158.0056	210.7565	-107.4656	1	236.5738	-27.01722	-0.0003472	-0.4498867	9
	29	81	125.558	230.4826	-96.6194	1	249.915	-22.74366	-0.0003464	-0.4498845	9
	30	83	99.734	246.2981	-85.60461	1	260.7507	-19.16566	-0.0003452	-0.4498853	9
	31	85	79.44915	255.5624	-74.38259	1	266.1671	-16.22788	-0.0003451	-0.449881	9
	32	87	63.34459	267.0183	-63.87731	1	274.5525	-13.45371	-0.0003448	-0.4498775	9
	33	89	49.86702	275.6409	-52.40179	1	280.5778	-10.76399	-0.000344	-0.4498784	9
	34	91	39.72458	279.4481	-43.82353	1	282.8634	-8.912634	-0.000343	-0.4498766	9
	35	93	31.88775	280.4224	-36.03731	1	282.7285	-7.322989	-0.0003431	-0.449879	9
	36	95	24.93351	288.8816	-31.14257	1	290.5554	-6.152949	-0.0003432	-0.4498788	9
	37	97	19.94681	290.676	-28.28183	1	292.0486	-5.557202	-0.0003426	-0.4498796	9
	38	98	15.94388	289.8416	-25.7295	1	290.9814	-5.0729	-0.0003423	-0.4498807	9
	39	100	12.40079	290.9067	-19.00953	1	291.5271	-3.738722	-0.0003413	-0.4498806	9
	40	102	9.91015	293.9354	-18.57765	1	294.5219	-3.616464	-0.0003414	-0.4498777	9
	41	104	7.971939	295.5547	-12.16519	1	295.805	-2.356994	-0.000341	-0.4498773	9
	42	105	6.351626	296.6792	-12.58258	1	296.9459	-2.428538	-0.0003406	-0.4498784	9
	43	107	4.970838	296.5629	-11.05129	1	296.7687	-2.134115	-0.0003405	-0.4498793	9
	44	109	3.942389	299.3397	-8.335894	1	299.4557	-1.595138	-0.00034	-0.4498799	9
	45	112	3.16723	299.9544	-9.84084	1	300.1158	-1.879074	-0.0003395	-0.4498807	9
	46	114	2.485419	301.3534	-9.319637	1	301.4975	-1.771361	-0.0003395	-0.4498729	9
	47	118	1.971194	302.7299	-8.525674	1	302.8499	-1.613174	-0.0003386	-0.4498729	9
	48	121	1.583615	305.3282	-7.334	1	305.4163	-1.375983	-0.0003378	-0.4498748	9
	49	125	1.260081	307.0666	-9.169716	1	307.2035	-1.710476	-0.0003368	-0.4498778	9
	50	131	1.001603	308.4093	-8.463627	1	308.5254	-1.571964	-0.0003363	-0.4498768	9
	51	136	0.7971939	310.0733	-7.64394	1	310.1675	-1.412172	-0.0003356	-0.449877	9
	52	142	0.6334459	312.7683	-8.356503	1	312.8799	-1.530457	-0.0003346	-0.4498774	9
	53	149	0.5029507	316.0199	-6.9296	1	316.0958	-1.256165	-0.0003336	-0.4498771	9
	54	158	0.3985969	318.1524	-7.06865	1	318.2309	-1.272777	-0.0003321	-0.4498776	9
	55	169	0.316723	321.1084	-4.911914	1	321.1459	-0.8763708	-0.00033	-0.4498746	9
	56	183	0.2514753	321.2163	-4.457359	1	321.2472	-0.7950141	-0.0003293	-0.4498751	9
	57	200	0.199638	325.8162	-3.257466	1	325.8325	-0.5728164	-0.0003269	-0.449875	9
	58	221	0.1585758	328.6093	-3.824543	1	328.6315	-0.666811	-0.0003247	-0.449875	9
	59	248	0.1260081	331.9783	-2.808583	1	331.9902	-0.4847188	-0.000322	-0.4498766	9
	60	280	0.1000747	334.2848	-1.240525	1	334.287	-0.2126227	-0.0003192	-0.4498762	9
	61	318	0.0794492	338.2996	-1.309641	1	338.3022	-0.2218049	-0.0003165	-0.4498748	9
	62	357	0.0631058	342.9516	-0.3257584	1	342.9518	-0.0544233	-0.0003134	-0.4498744	9
	63	405	0.050123	346.5628	-0.3988645	1	346.563	-0.0659426	-0.0003103	-0.449874	9
	64	466	0.0398191	347.1128	2.005368	1	347.1186	0.33101	-0.0003075	-0.4498749	9
