EXPLAIN
TAG	EISPOT
TITLE	LABEL	Potentiostatic EIS	Test Identifier
DATE	LABEL	11/18/2020	Date
TIME	LABEL	20:18:47	Time
NOTES	NOTES	2	Notes...
	in 0.5 M H2SO4 purging H2
RPM 1600
PSTAT	PSTAT	IFC1010-24143	Potentiostat
VDC	POTEN	-5.00000E-001	F	DC Voltage (V)
FREQINIT	QUANT	1.00000E+005	Initial Freq. (Hz)
FREQFINAL	QUANT	5.00000E-002	Final Freq. (Hz)
PTSPERDEC	QUANT	1.00000E+001	Points/decade
VAC	QUANT	1.00000E+001	AC Voltage (mV rms)
AREA	QUANT	1.97000E-001	Sample Area (cm^2)
SPEED	SELECTOR	1	Optimize for:
ZGUESS	QUANT	1.00000E+004	Estimated Z (ohms)
EOC	QUANT	0	Open Circuit (V)
SEQUENCER	TOGGLE	TRUE	Run as Sequence
PSTATMODEL	IQUANT	64	Pstat Model
PSTATSECTION	LABEL	IFC1010-24143	Pstat Section
PSTATSERIALNO	LABEL	24143	Pstat Serial Number
CTRLMODE	IQUANT	1	Control Mode
ELECTROMETER	IQUANT	0	RE=0 or CS=1
IESTAB	IQUANT	0	I/E Stability
CASPEED	IQUANT	3	Control Amp Speed
CONVENTION	IQUANT	1	Current Convention
ICHRANGE	IQUANT	2	Ich Range
ICHRANGEMODE	TOGGLE	F	Ich Auto Range
ICHOFFSETENABLE	TOGGLE	T	Ich Offset Enable
ICHOFFSET	QUANT	0	Ich Offset (V)
ICHFILTER	IQUANT	4	Ich Filter
VCHRANGE	IQUANT	2	Vch Range
VCHRANGEMODE	TOGGLE	F	Vch Auto Range
VCHOFFSETENABLE	TOGGLE	T	Vch Offset Enable
VCHOFFSET	QUANT	0	Vch Offset (V)
VCHFILTER	IQUANT	4	Vch Filter
IERANGELOWERLIMIT	IQUANT	4	I/E Range Lower Limit
IERANGEMODE	TOGGLE	F	I/E AutoRange
IERANGE	IQUANT	11	I/E Range
ACHSELECT	IQUANT	0	Ach Select
ACHRANGE	IQUANT	2	Ach Range
ACHOFFSETENABLE	TOGGLE	F	Ach Offset Enable
ACHOFFSET	QUANT	0	Ach Offset (V)
ACHFILTER	IQUANT	1	Ach Filter
SENSECABLEID	IQUANT	14	Sense Cable ID
PWRCABLEID	IQUANT	14	Power Cable ID
DCCALDATE	LABEL	11/16/2020	DC Calibration Date
ACCALDATE	LABEL	6/10/2019	AC Calibration Date
FRAMEWORKVERSION	QUANT	7.07	Framework Version
INSTRUMENTVERSION	LABEL	4.34	Instrument Version
ZCURVE	TABLE
	Pt	Time	Freq	Zreal	Zimag	Zsig	Zmod	Zphz	Idc	Vdc	IERange
	#	s	Hz	ohm	ohm	V	ohm	°	A	V	#
	0	7	100195.3	9.403958	-1.354867	1	9.50106	-8.198421	-0.0005961	-0.4998739	10
	1	11	79570.31	9.461617	-1.679666	1	9.60955	-10.06651	-0.0005833	-0.4998225	10
	2	14	63164.06	9.50323	-2.048893	1	9.72159	-12.16672	-0.0005761	-0.4997998	10
	3	17	50273.44	9.65433	-2.476338	1	9.96686	-14.38623	-0.0005712	-0.4998169	10
	4	21	39960.94	9.75373	-3.070625	1	10.22565	-17.47481	-0.0005691	-0.4998156	10
	5	24	31757.81	9.89032	-3.787282	1	10.59065	-20.95325	-0.000565	-0.4998165	10
	6	27	25195.31	9.96829	-4.682835	1	11.01344	-25.16287	-0.0005634	-0.499832	10
	7	31	20039.06	10.23395	-5.712742	1	11.72046	-29.1709	-0.0005654	-0.4998606	10
	8	33	15663.11	10.54079	-7.154483	1	12.7395	-34.16642	-0.0005612	-0.4998373	10
	9	36	12461.89	10.90493	-8.769451	1	13.9936	-38.8053	-0.0005585	-0.4998443	10
	10	39	9946.65	11.35844	-10.73003	1	15.62522	-43.37039	-0.0005579	-0.4998438	10
	11	42	7888.72	12.01364	-13.25166	1	17.8867	-47.8053	-0.0005563	-0.4998211	10
	12	45	6288.11	12.85356	-16.18165	1	20.66542	-51.53885	-0.0005538	-0.4998375	10
	13	48	5039.063	13.95249	-19.75013	1	24.18139	-54.7607	-0.0005511	-0.4998744	10
	14	51	4001.524	15.54627	-24.17183	1	28.73959	-57.25264	-0.0005504	-0.499875	10
	15	54	3164.063	17.79918	-29.61011	1	34.54808	-58.98915	-0.0005472	-0.4998749	10
	16	57	2507.267	20.88553	-35.9859	1	41.60758	-59.86994	-0.0005456	-0.4998723	10
	17	60	1979.167	25.36018	-43.58715	1	50.42796	-59.808	-0.0005447	-0.4998626	9
	18	63	1598.011	30.81179	-51.3272	1	59.86525	-59.02355	-0.0005436	-0.4998614	9
	19	65	1257.622	39.08541	-60.74134	1	72.23005	-57.23981	-0.0005426	-0.4998639	9
	20	68	1004.464	49.47506	-69.9087	1	85.64466	-54.71259	-0.0005412	-0.4998638	9
	21	71	800.3049	62.59713	-78.59782	1	100.4789	-51.46537	-0.0005402	-0.4998612	9
	22	73	631.0096	79.47401	-85.86776	1	117.0017	-47.21452	-0.0005403	-0.499863	9
	23	75	498.6702	98.3079	-90.3691	1	133.5329	-42.59063	-0.0005394	-0.4998651	9
	24	77	397.2458	117.7054	-91.33636	1	148.9862	-37.81054	-0.0005382	-0.4998663	9
	25	79	319.6023	135.984	-88.74004	1	162.3775	-33.12755	-0.0005379	-0.4998654	9
	26	81	251.1161	153.7613	-82.09298	1	174.3038	-28.0977	-0.0005377	-0.4998637	9
	27	84	200.8929	169.6769	-74.99525	1	185.5115	-23.84489	-0.0005357	-0.4998637	9
	28	86	158.0056	181.5518	-66.51424	1	193.3525	-20.12107	-0.0005349	-0.4998629	9
	29	88	125.558	191.1407	-56.6044	1	199.346	-16.49613	-0.000535	-0.499864	9
	30	90	99.734	200.6274	-46.99314	1	206.0575	-13.18279	-0.0005348	-0.499868	9
	31	92	79.44915	203.6726	-41.38389	1	207.8345	-11.48547	-0.0005328	-0.4998583	9
	32	95	63.34459	206.8428	-33.09602	1	209.4738	-9.090593	-0.0005323	-0.4998568	9
	33	97	49.86702	212.0536	-29.72215	1	214.1264	-7.978793	-0.0005316	-0.4998589	9
	34	99	39.72458	211.888	-22.57744	1	213.0875	-6.082124	-0.000531	-0.4998597	9
	35	101	31.88775	214.4745	-19.86827	1	215.3928	-5.292601	-0.00053	-0.4998605	9
	36	104	24.93351	215.6021	-19.35816	1	216.4694	-5.13063	-0.0005293	-0.4998597	9
	37	106	19.94681	215.926	-13.96539	1	216.3772	-3.700548	-0.0005286	-0.4998604	9
	38	108	15.94388	219.2916	-13.84264	1	219.728	-3.611967	-0.0005291	-0.4998599	9
	39	110	12.40079	218.2299	-11.82651	1	218.5502	-3.101989	-0.0005284	-0.4998588	9
	40	111	9.91015	220.6862	-10.25945	1	220.9245	-2.661699	-0.0005271	-0.4998598	9
	41	113	7.971939	222.6246	-8.651186	1	222.7926	-2.225393	-0.0005267	-0.4998602	9
	42	116	6.351626	222.1601	-8.063587	1	222.3064	-2.078712	-0.000526	-0.4998602	9
	43	118	4.970838	222.4547	-8.878033	1	222.6318	-2.285427	-0.0005256	-0.4998602	9
	44	120	3.942389	226.5701	-7.872916	1	226.7068	-1.990128	-0.0005246	-0.4998638	9
	45	122	3.16723	226.0155	-8.035071	1	226.1583	-2.036063	-0.0005243	-0.4998634	9
	46	125	2.485419	227.0368	-7.622181	1	227.1648	-1.922837	-0.0005232	-0.499857	9
	47	128	1.971194	228.7411	-6.395451	1	228.8305	-1.601535	-0.0005226	-0.4998569	9
	48	132	1.583615	230.766	-7.282307	1	230.8808	-1.807489	-0.0005211	-0.4998571	9
	49	136	1.260081	231.9045	-6.786232	1	232.0038	-1.676171	-0.0005198	-0.4998579	9
	50	141	1.001603	233.6922	-6.254063	1	233.7758	-1.532982	-0.0005198	-0.4998538	9
	51	147	0.7971939	235.7149	-6.036913	1	235.7922	-1.467086	-0.0005189	-0.4998541	9
	52	153	0.6334459	237.0499	-6.647649	1	237.1431	-1.606339	-0.0005174	-0.499858	9
	53	160	0.5029507	238.2419	-4.889668	1	238.2921	-1.175771	-0.0005159	-0.499855	9
	54	171	0.3985969	241.7286	-5.793699	1	241.798	-1.37299	-0.000513	-0.4998571	9
	55	182	0.316723	242.8365	-5.156445	1	242.8912	-1.216449	-0.000511	-0.499857	9
	56	196	0.2514753	245.5261	-3.800333	1	245.5555	-0.8867719	-0.0005091	-0.4998562	9
	57	213	0.199638	247.1286	-3.229884	1	247.1497	-0.7487932	-0.0005063	-0.4998574	9
	58	234	0.1585758	248.8901	-1.981689	1	248.898	-0.4561853	-0.0005037	-0.4998594	9
	59	261	0.1260081	251.8577	-2.794933	1	251.8732	-0.6358006	-0.000499	-0.4998593	9
	60	293	0.1000747	255.8591	0.8376359	1	255.8605	0.1875752	-0.000492	-0.4998578	9
	61	341	0.0794492	258.0108	-0.5237272	1	258.0114	-0.1163026	-0.0004903	-0.4998595	9
	62	379	0.0631058	259.2307	0.1788716	1	259.2308	0.0395346	-0.0004868	-0.4998564	9
	63	428	0.050123	261.4786	1.530092	1	261.4831	0.3352735	-0.0004822	-0.4998564	9
	64	489	0.0398191	265.3118	2.050827	1	265.3198	0.4428802	-0.0004773	-0.4998567	9
